"Freq [GHz]","im(Y(JJ,JJ)) []","re(Y(JJ,JJ)) []"
3.5,0.00203005306131139,1.97475736270032E-09
3.50014401152092,0.00203014041044154,1.97496071748843E-09
3.50028802304184,0.00203022776009559,1.97516409434365E-09
3.50043203456277,0.00203031511027359,1.97536749335526E-09
3.50057604608369,0.00203040246097557,1.97557091929643E-09
3.50072005760461,0.00203048981220157,1.97577436677468E-09
3.50086406912553,0.00203057716395163,1.97597783882838E-09
3.50100808064645,0.0020306645162258,1.97618133513049E-09
3.50115209216737,0.00203075186902411,1.97638485417438E-09
3.50129610368829,0.0020308392223466,1.97658839514729E-09
3.50144011520922,0.00203092657619333,1.97679196244061E-09
3.50158412673014,0.00203101393056431,1.97699555309058E-09
3.50172813825106,0.0020311012854596,1.97719916697831E-09
3.50187214977198,0.00203118864087924,1.97740280568495E-09
3.5020161612929,0.00203127599682326,1.97760646631606E-09
3.50216017281382,0.00203136335329171,1.97781015333242E-09
3.50230418433475,0.00203145071028463,1.97801386130686E-09
3.50244819585567,0.00203153806780205,1.97821759331246E-09
3.50259220737659,0.00203162542584402,1.97842135016704E-09
3.50273621889751,0.00203171278441058,1.97862513022516E-09
3.50288023041843,0.00203180014350177,1.9788289352414E-09
3.50302424193936,0.00203188750311764,1.97903276228658E-09
3.50316825346028,0.00203197486325821,1.97923661318477E-09
3.5033122649812,0.00203206222392353,1.97944048996808E-09
3.50345627650212,0.00203214958511364,1.9796443887012E-09
3.50360028802304,0.00203223694682858,1.97984831072239E-09
3.50374429954396,0.00203232430906839,1.9800522560862E-09
3.50388831106489,0.00203241167183312,1.98025622620023E-09
3.50403232258581,0.0020324990351228,1.98046022188238E-09
3.50417633410673,0.00203258639893747,1.98066423791362E-09
3.50432034562765,0.00203267376327718,1.98086827861588E-09
3.50446435714857,0.00203276112814196,1.9810723455009E-09
3.50460836866949,0.00203284849353186,1.98127643348841E-09
3.50475238019042,0.00203293585944691,1.98148054665747E-09
3.50489639171134,0.00203302322588716,1.98168468239122E-09
3.50504040323226,0.00203311059285264,1.98188884324214E-09
3.50518441475318,0.00203319796034341,1.98209302572593E-09
3.5053284262741,0.00203328532835948,1.98229723357471E-09
3.50547243779502,0.00203337269690092,1.98250146611442E-09
3.50561644931595,0.00203346006596777,1.98270572086685E-09
3.50576046083687,0.00203354743556004,1.98291000052335E-09
3.50590447235779,0.0020336348056778,1.98311430229345E-09
3.50604848387871,0.00203372217632108,1.98331863133175E-09
3.50619249539963,0.00203380954748992,1.98352298023342E-09
3.50633650692055,0.00203389691918436,1.98372735543677E-09
3.50648051844148,0.00203398429140445,1.9839317515492E-09
3.5066245299624,0.00203407166415022,1.98413617278862E-09
3.50676854148332,0.00203415903742171,1.98434061966051E-09
3.50691255300424,0.00203424641121896,1.9845450894785E-09
3.50705656452516,0.00203433378554203,1.9847495826787E-09
3.50720057604608,0.00203442116039093,1.98495409768496E-09
3.50734458756701,0.00203450853576574,1.98515863930485E-09
3.50748859908793,0.00203459591166646,1.98536320488675E-09
3.50763261060885,0.00203468328809315,1.98556779299324E-09
3.50777662212977,0.00203477066504585,1.98577240596861E-09
3.50792063365069,0.0020348580425246,1.98597704143873E-09
3.50806464517161,0.00203494542052944,1.98618169977028E-09
3.50820865669254,0.00203503279906041,1.9863863835157E-09
3.50835266821346,0.00203512017811756,1.98659109120295E-09
3.50849667973438,0.00203520755770091,1.98679582368444E-09
3.5086406912553,0.00203529493781052,1.98700057862067E-09
3.50878470277622,0.00203538231844642,1.98720535724571E-09
3.50892871429714,0.00203546969960866,1.98741015940583E-09
3.50907272581807,0.00203555708129727,1.98761498484318E-09
3.50921673733899,0.0020356444635123,1.98781983517353E-09
3.50936074885991,0.00203573184625379,1.98802470885531E-09
3.50950476038083,0.00203581922952177,1.98822960753891E-09
3.50964877190175,0.0020359066133163,1.98843452909299E-09
3.50979278342267,0.0020359939976374,1.98863947447404E-09
3.5099367949436,0.00203608138248513,1.98884444488134E-09
3.51008080646452,0.00203616876785951,1.9890494378714E-09
3.51022481798544,0.00203625615376059,1.98925445394961E-09
3.51036882950636,0.00203634354018842,1.98945949566838E-09
3.51051284102728,0.00203643092714303,1.98966455905756E-09
3.5106568525482,0.00203651831462447,1.98986964798794E-09
3.51080086406913,0.00203660570263278,1.9900747586628E-09
3.51094487559005,0.00203669309116798,1.99027989828367E-09
3.51108888711097,0.00203678048023014,1.99048505590675E-09
3.51123289863189,0.00203686786981928,1.99069024116212E-09
3.51137691015281,0.00203695525993545,1.99089544872651E-09
3.51152092167373,0.00203704265057869,1.99110068156864E-09
3.51166493319466,0.00203713004174905,1.9913059369673E-09
3.51180894471558,0.00203721743344655,1.99151121608716E-09
3.5119529562365,0.00203730482567125,1.99171651960705E-09
3.51209696775742,0.00203739221842318,1.99192184584663E-09
3.51224097927834,0.00203747961170238,1.99212719753174E-09
3.51238499079926,0.0020375670055089,1.99233257152483E-09
3.51252900232019,0.00203765439984278,1.99253797079458E-09
3.51267301384111,0.00203774179470405,1.99274339244639E-09
3.51281702536203,0.00203782919009276,1.99294884125301E-09
3.51296103688295,0.00203791658600895,1.99315430887275E-09
3.51310504840387,0.00203800398245266,1.99335980573359E-09
3.51324905992479,0.00203809137942393,1.9935653223142E-09
3.51339307144572,0.00203817877692281,1.99377086335264E-09
3.51353708296664,0.00203826617494933,1.99397642942374E-09
3.51368109448756,0.00203835357350353,1.99418202009607E-09
3.51382510600848,0.00203844097258545,1.9943876320933E-09
3.5139691175294,0.00203852837219514,1.99459327063923E-09
3.51411312905032,0.00203861577233264,1.99479893020238E-09
3.51425714057125,0.00203870317299799,1.99500461583302E-09
3.51440115209217,0.00203879057419122,1.99521032619778E-09
3.51454516361309,0.00203887797591239,1.99541605985907E-09
3.51468917513401,0.00203896537816152,1.99562181555282E-09
3.51483318665493,0.00203905278093867,1.99582759687216E-09
3.51497719817585,0.00203914018424387,1.99603340067952E-09
3.51512120969678,0.00203922758807718,1.99623922994348E-09
3.5152652212177,0.00203931499243861,1.99644508187349E-09
3.51540923273862,0.00203940239732822,1.99665095988916E-09
3.51555324425954,0.00203948980274604,1.99685685880591E-09
3.51569725578046,0.00203957720869213,1.99706278377813E-09
3.51584126730138,0.00203966461516651,1.99726873152943E-09
3.51598527882231,0.00203975202216924,1.9974747036753E-09
3.51612929034323,0.00203983942970035,1.99768069870885E-09
3.51627330186415,0.00203992683775988,1.99788671900885E-09
3.51641731338507,0.00204001424634788,1.99809276376221E-09
3.51656132490599,0.00204010165546438,1.99829883021294E-09
3.51670533642691,0.00204018906510943,1.99850492094802E-09
3.51684934794784,0.00204027647528307,1.99871103716657E-09
3.51699335946876,0.00204036388598533,1.99891717656372E-09
3.51713737098968,0.00204045129721627,1.99912333995695E-09
3.5172813825106,0.00204053870897592,1.99932952805973E-09
3.51742539403152,0.00204062612126432,1.9995357401977E-09
3.51756940555244,0.00204071353408151,1.9997419753843E-09
3.51771341707337,0.00204080094742754,1.99994823315329E-09
3.51785742859429,0.00204088836130245,2.00015451459985E-09
3.51800144011521,0.00204097577570627,2.00036082276188E-09
3.51814545163613,0.00204106319063905,2.00056715550787E-09
3.51828946315705,0.00204115060610083,2.00077350897158E-09
3.51843347467797,0.00204123802209166,2.00097988882773E-09
3.5185774861989,0.00204132543861157,2.00118629218148E-09
3.51872149771982,0.0020414128556606,2.00139271939939E-09
3.51886550924074,0.00204150027323879,2.00159916741312E-09
3.51900952076166,0.00204158769134619,2.00180564338926E-09
3.51915353228258,0.00204167510998284,2.00201214110232E-09
3.5192975438035,0.00204176252914878,2.00221866390248E-09
3.51944155532443,0.00204184994884405,2.00242521118471E-09
3.51958556684535,0.00204193736906869,2.00263178112979E-09
3.51972957836627,0.00204202478982274,2.00283837400005E-09
3.51987358988719,0.00204211221110625,2.00304499571304E-09
3.52001760140811,0.00204219963291925,2.00325163653911E-09
3.52016161292903,0.00204228705526179,2.00345830354074E-09
3.52030562444996,0.00204237447813391,2.0036649934414E-09
3.52044963597088,0.00204246190153564,2.00387170705864E-09
3.5205936474918,0.00204254932546704,2.00407844548742E-09
3.52073765901272,0.00204263674992814,2.00428520812272E-09
3.52088167053364,0.00204272417491898,2.00449199501871E-09
3.52102568205456,0.00204281160043961,2.00469880338463E-09
3.52116969357549,0.00204289902649007,2.00490563768078E-09
3.52131370509641,0.00204298645307039,2.00511249640016E-09
3.52145771661733,0.00204307388018062,2.00531937963159E-09
3.52160172813825,0.0020431613078208,2.00552628527815E-09
3.52174573965917,0.00204324873599098,2.00573321509404E-09
3.52188975118009,0.00204333616469119,2.00594016802318E-09
3.52203376270102,0.00204342359392147,2.00614714890751E-09
3.52217777422194,0.00204351102368187,2.00635415034194E-09
3.52232178574286,0.00204359845397243,2.00656117331732E-09
3.52246579726378,0.00204368588479319,2.00676822545117E-09
3.5226098087847,0.00204377331614418,2.00697529857505E-09
3.52275382030562,0.00204386074802546,2.0071823957962E-09
3.52289783182655,0.00204394818043707,2.0073895190422E-09
3.52304184334747,0.00204403561337904,2.007596665557E-09
3.52318585486839,0.00204412304685141,2.00780383671307E-09
3.52332986638931,0.00204421048085424,2.00801102944203E-09
3.52347387791023,0.00204429791538755,2.00821824737152E-09
3.52361788943115,0.00204438535045139,2.0084254895495E-09
3.52376190095208,0.00204447278604581,2.00863275620352E-09
3.523905912473,0.00204456022217084,2.00884004554895E-09
3.52404992399392,0.00204464765882653,2.00904736225421E-09
3.52419393551484,0.00204473509601292,2.00925469735284E-09
3.52433794703576,0.00204482253373004,2.00946206161953E-09
3.52448195855668,0.00204490997197794,2.00966944830824E-09
3.52462597007761,0.00204499741075667,2.00987685858325E-09
3.52476998159853,0.00204508485006626,2.01008429211707E-09
3.52491399311945,0.00204517228990676,2.01029175215565E-09
3.52505800464037,0.0020452597302782,2.01049923219579E-09
3.52520201616129,0.00204534717118063,2.01070673943864E-09
3.52534602768221,0.00204543461261409,2.01091427043412E-09
3.52549003920314,0.00204552205457863,2.01112182329338E-09
3.52563405072406,0.00204560949707427,2.01132940282368E-09
3.52577806224498,0.00204569694010107,2.01153700460347E-09
3.5259220737659,0.00204578438365907,2.01174463257259E-09
3.52606608528682,0.0020458718277483,2.01195228432177E-09
3.52621009680774,0.00204595927236882,2.0121599579275E-09
3.52635410832867,0.00204604671752066,2.01236765687851E-09
3.52649811984959,0.00204613416320386,2.01257538063913E-09
3.52664213137051,0.00204622160941847,2.01278312551637E-09
3.52678614289143,0.00204630905616452,2.01299089763577E-09
3.52693015441235,0.00204639650344206,2.01319869285336E-09
3.52707416593327,0.00204648395125113,2.0134065122293E-09
3.5272181774542,0.00204657139959178,2.01361435703188E-09
3.52736218897512,0.00204665884846403,2.01382222329065E-09
3.52750620049604,0.00204674629786794,2.01403011428616E-09
3.52765021201696,0.00204683374780355,2.01423802920508E-09
3.52779422353788,0.00204692119827089,2.01444596709529E-09
3.5279382350588,0.00204700864927002,2.01465393269454E-09
3.52808224657973,0.00204709610080097,2.01486192019343E-09
3.52822625810065,0.00204718355286379,2.01506993145017E-09
3.52837026962157,0.0020472710054585,2.01527796745545E-09
3.52851428114249,0.00204735845858517,2.01548602732654E-09
3.52865829266341,0.00204744591224382,2.01569411129088E-09
3.52880230418433,0.00204753336643451,2.0159022192984E-09
3.52894631570526,0.00204762082115728,2.01611035147242E-09
3.52909032722618,0.00204770827641215,2.01631850852621E-09
3.5292343387471,0.00204779573219918,2.01652668895246E-09
3.52937835026802,0.00204788318851841,2.01673489329085E-09
3.52952236178894,0.00204797064536988,2.0169431188892E-09
3.52966637330986,0.00204805810275363,2.01715137218526E-09
3.52981038483079,0.00204814556066971,2.01735965052679E-09
3.52995439635171,0.00204823301911815,2.01756795088002E-09
3.53009840787263,0.00204832047809899,2.01777627597036E-09
3.53024241939355,0.00204840793761229,2.01798462557419E-09
3.53038643091447,0.00204849539765808,2.01819299974547E-09
3.53053044243539,0.0020485828582364,2.01840139656057E-09
3.53067445395632,0.00204867031934731,2.0186098173224E-09
3.53081846547724,0.00204875778099082,2.01881826305642E-09
3.53096247699816,0.00204884524316699,2.01902673076342E-09
3.53110648851908,0.00204893270587587,2.01923522500762E-09
3.53125050004,0.00204902016911749,2.01944374462865E-09
3.53139451156092,0.00204910763289189,2.01965228551709E-09
3.53153852308185,0.00204919509719912,2.01986085071057E-09
3.53168253460277,0.00204928256203922,2.02006944210189E-09
3.53182654612369,0.00204937002741223,2.02027805464484E-09
3.53197055764461,0.00204945749331819,2.02048669331996E-09
3.53211456916553,0.00204954495975714,2.0206953572444E-09
3.53225858068645,0.00204963242672913,2.02090404269039E-09
3.53240259220738,0.00204971989423421,2.02111275554046E-09
3.5325466037283,0.0020498073622724,2.02132149040155E-09
3.53269061524922,0.00204989483084375,2.02153024857654E-09
3.53283462677014,0.00204998229994831,2.02173903223568E-09
3.53297863829106,0.00205006976958611,2.02194784032264E-09
3.53312264981199,0.00205015723975721,2.02215667160758E-09
3.53326666133291,0.00205024471046164,2.02236552562404E-09
3.53341067285383,0.00205033218169943,2.0225744053749E-09
3.53355468437475,0.00205041965347064,2.0227833099079E-09
3.53369869589567,0.00205050712577531,2.02299223802791E-09
3.53384270741659,0.00205059459861348,2.02320119131536E-09
3.53398671893751,0.00205068207198519,2.02341016847105E-09
3.53413073045844,0.00205076954589048,2.02361916923654E-09
3.53427474197936,0.0020508570203294,2.02382819432498E-09
3.53441875350028,0.00205094449530198,2.02403724240241E-09
3.5345627650212,0.00205103197080827,2.02424631674926E-09
3.53470677654212,0.00205111944684832,2.0244554129438E-09
3.53485078806305,0.00205120692342216,2.02466453332968E-09
3.53499479958397,0.00205129440052983,2.02487367796083E-09
3.53513881110489,0.00205138187817139,2.02508284831352E-09
3.53528282262581,0.00205146935634686,2.02529204284564E-09
3.53542683414673,0.00205155683505629,2.02550126192329E-09
3.53557084566765,0.00205164431429973,2.02571050525334E-09
3.53571485718858,0.00205173179407722,2.02591977191815E-09
3.5358588687095,0.00205181927438879,2.0261290621104E-09
3.53600288023042,0.00205190675523449,2.02633837564101E-09
3.53614689175134,0.00205199423661437,2.02654771499241E-09
3.53629090327226,0.00205208171852846,2.02675707869186E-09
3.53643491479318,0.00205216920097681,2.02696646717482E-09
3.5365789263141,0.00205225668395946,2.02717587903791E-09
3.53672293783503,0.00205234416747646,2.02738531225326E-09
3.53686694935595,0.00205243165152784,2.02759477339729E-09
3.53701096087687,0.00205251913611364,2.02780425697265E-09
3.53715497239779,0.00205260662123391,2.02801376646789E-09
3.53729898391871,0.00205269410688869,2.02822329711427E-09
3.53744299543964,0.00205278159307803,2.02843285580034E-09
3.53758700696056,0.00205286907980196,2.02864243588395E-09
3.53773101848148,0.00205295656706053,2.02885204165156E-09
3.5378750300024,0.00205304405485378,2.02906167218551E-09
3.53801904152332,0.00205313154318175,2.02927132493747E-09
3.53816305304424,0.00205321903204448,2.02948100367355E-09
3.53830706456516,0.00205330652144203,2.02969070699032E-09
3.53845107608609,0.00205339401137442,2.02990043122922E-09
3.53859508760701,0.00205348150184171,2.03011018366054E-09
3.53873909912793,0.00205356899284392,2.03031995719092E-09
3.53888311064885,0.00205365648438112,2.03052975645381E-09
3.53902712216977,0.00205374397645333,2.03073957897025E-09
3.5391711336907,0.00205383146906061,2.03094942930423E-09
3.53931514521162,0.00205391896220298,2.03115929952985E-09
3.53945915673254,0.00205400645588051,2.03136919428048E-09
3.53960316825346,0.00205409395009322,2.03157911555276E-09
3.53974717977438,0.00205418144484116,2.03178906006974E-09
3.5398911912953,0.00205426894012437,2.03199902989744E-09
3.54003520281623,0.00205435643594291,2.03220902262623E-09
3.54017921433715,0.0020544439322968,2.03241903973241E-09
3.54032322585807,0.00205453142918608,2.03262907974308E-09
3.54046723737899,0.00205461892661081,2.03283914718756E-09
3.54061124889991,0.00205470642457103,2.03304923403575E-09
3.54075526042083,0.00205479392306677,2.03325935040275E-09
3.54089927194176,0.00205488142209809,2.03346948947274E-09
3.54104328346268,0.00205496892166502,2.03367965008518E-09
3.5411872949836,0.0020550564217676,2.03388983777546E-09
3.54133130650452,0.00205514392240587,2.03410004909315E-09
3.54147531802544,0.00205523142357989,2.03431028502868E-09
3.54161932954636,0.00205531892528969,2.03452054445613E-09
3.54176334106729,0.00205540642753532,2.03473082951083E-09
3.54190735258821,0.00205549393031682,2.034941136673E-09
3.54205136410913,0.00205558143363422,2.03515147054126E-09
3.54219537563005,0.00205566893748758,2.03536182613858E-09
3.54233938715097,0.00205575644187693,2.03557220719627E-09
3.54248339867189,0.00205584394680231,2.03578261224142E-09
3.54262741019282,0.00205593145226379,2.03599304216034E-09
3.54277142171374,0.00205601895826138,2.03620349509858E-09
3.54291543323466,0.00205610646479514,2.03641397596696E-09
3.54305944475558,0.0020561939718651,2.03662447840069E-09
3.5432034562765,0.00205628147947131,2.03683500550652E-09
3.54334746779742,0.00205636898761382,2.03704555470133E-09
3.54349147931835,0.00205645649629267,2.03725613058369E-09
3.54363549083927,0.00205654400550789,2.03746673175017E-09
3.54377950236019,0.00205663151525954,2.03767735370938E-09
3.54392351388111,0.00205671902554764,2.03788800199669E-09
3.54406752540203,0.00205680653637226,2.03809867430652E-09
3.54421153692295,0.00205689404773342,2.03830937260067E-09
3.54435554844388,0.00205698155963118,2.03852009193674E-09
3.5444995599648,0.00205706907206556,2.03873083840527E-09
3.54464357148572,0.00205715658503663,2.03894160820874E-09
3.54478758300664,0.00205724409854441,2.03915240105384E-09
3.54493159452756,0.00205733161258896,2.03936322046362E-09
3.54507560604848,0.00205741912717031,2.03957406499982E-09
3.54521961756941,0.00205750664228851,2.03978492989348E-09
3.54536362909033,0.0020575941579436,2.03999582185962E-09
3.54550764061125,0.00205768167413562,2.04020673869667E-09
3.54565165213217,0.00205776919086462,2.04041767782143E-09
3.54579566365309,0.00205785670813063,2.04062864220183E-09
3.54593967517401,0.00205794422593371,2.04083963192615E-09
3.54608368669494,0.0020580317442739,2.04105064454994E-09
3.54622769821586,0.00205811926315122,2.04126168002278E-09
3.54637170973678,0.00205820678256574,2.04147274238807E-09
3.5465157212577,0.00205829430251749,2.04168382840341E-09
3.54665973277862,0.00205838182300652,2.04189493756725E-09
3.54680374429954,0.00205846934403286,2.04210607447815E-09
3.54694775582047,0.00205855686559657,2.04231723186908E-09
3.54709176734139,0.00205864438769767,2.04252841655913E-09
3.54723577886231,0.00205873191033623,2.04273962395274E-09
3.54737979038323,0.00205881943351227,2.04295085712188E-09
3.54752380190415,0.00205890695722584,2.04316211098533E-09
3.54766781342507,0.00205899448147699,2.04337339263961E-09
3.547811824946,0.00205908200626576,2.04358469710752E-09
3.54795583646692,0.00205916953159219,2.04379602652436E-09
3.54809984798784,0.00205925705745632,2.04400738063137E-09
3.54824385950876,0.0020593445838582,2.04421875812901E-09
3.54838787102968,0.00205943211079786,2.04443016222799E-09
3.5485318825506,0.00205951963827536,2.04464158788175E-09
3.54867589407153,0.00205960716629074,2.04485303854385E-09
